(1716404139.383803) can0 3D4#0201435555555555 benigno
(1716404139.384003) can0 03A#0000616521555555 benigno
(1716404139.488937) can0 141#0201B45555555555 benigno
(1716404139.489450) can0 026#0000000000000000 benigno
(1716404139.565320) can0 3D4#0201435555555555 benigno
(1716404139.565514) can0 03A#0000616521555555 benigno
(1716404139.672406) can0 141#0201B45555555555 benigno
(1716404139.672608) can0 026#0000000000000000 benigno
(1716404139.747982) can0 3D4#0201435555555555 benigno
(1716404139.748187) can0 03A#0000616521555555 benigno
(1716404139.777843) can0 0FF#02018D5555555555 benigno
(1716404139.807594) can0 026#0201585555555555 benigno
(1716404139.853976) can0 141#0201B45555555555 benigno
(1716404139.854222) can0 026#0000000000000000 benigno
(1716404139.929175) can0 3D4#0201435555555555 benigno
(1716404139.929368) can0 03A#0000616521555555 benigno
(1716404140.004143) can0 02C#0001FB0000000000 benigno
(1716404140.033718) can0 141#0201B45555555555 benigno
(1716404140.033960) can0 026#0000000000000000 benigno
(1716404140.108919) can0 3D4#0201435555555555 benigno
(1716404140.109123) can0 03A#0000616521555555 benigno
(1716404140.214259) can0 141#0201B45555555555 benigno
(1716404140.214504) can0 026#0000000000000000 benigno
(1716404140.238262) can0 3D4#0000000000000000 benigno
(1716404140.289965) can0 3D4#0201435555555555 benigno
(1716404140.290187) can0 03A#0000616521555555 benigno
(1716404140.304936) can0 0FF#02018D5555555555 benigno
(1716404140.399353) can0 141#0201B45555555555 benigno
(1716404140.399574) can0 026#0000000000000000 benigno
(1716404140.476280) can0 3D4#0201435555555555 benigno
(1716404140.476479) can0 03A#0000616521555555 benigno
(1716404140.581350) can0 141#0201B45555555555 benigno
(1716404140.581572) can0 026#0000000000000000 benigno
(1716404140.656574) can0 3D4#0201435555555555 benigno
(1716404140.656792) can0 03A#0000616521555555 benigno
(1716404140.762124) can0 141#0201B45555555555 benigno
(1716404140.762345) can0 026#0000000000000000 benigno
(1716404140.821909) can0 026#0201585555555555 benigno
(1716404140.824433) can0 0FF#02018D5555555555 benigno
(1716404140.837078) can0 3D4#0201435555555555 benigno
(1716404140.837284) can0 03A#0000616521555555 benigno
(1716404140.942386) can0 141#0201B45555555555 benigno
(1716404140.942792) can0 026#0000000000000000 benigno
(1716404141.017541) can0 3D4#0201435555555555 benigno
(1716404141.017764) can0 03A#0000616521555555 benigno
(1716404141.043999) can0 02C#0001FB0000000000 benigno
(1716404141.122436) can0 141#0201B45555555555 benigno
(1716404141.122655) can0 026#0000000000000000 benigno
(1716404141.197477) can0 3D4#0201435555555555 benigno
(1716404141.197680) can0 03A#0000616521555555 benigno
(1716404141.257122) can0 3D4#0000000000000000 benigno
(1716404141.302311) can0 141#0201B45555555555 benigno
(1716404141.302807) can0 026#0000000000000000 benigno
(1716404141.346136) can0 0FF#02018D5555555555 benigno
(1716404141.377492) can0 3D4#0201435555555555 benigno
(1716404141.377723) can0 03A#0000616521555555 benigno
(1716404141.482464) can0 141#0201B45555555555 benigno
(1716404141.482711) can0 026#0000000000000000 benigno
(1716404141.557221) can0 3D4#0201435555555555 benigno
(1716404141.557575) can0 03A#0000616521555555 benigno
(1716404141.662299) can0 141#0201B45555555555 benigno
(1716404141.662529) can0 026#0000000000000000 benigno
(1716404141.738346) can0 3D4#0201435555555555 benigno
(1716404141.738556) can0 03A#0000616521555555 benigno
(1716404141.832456) can0 026#0201585555555555 benigno
(1716404141.848385) can0 141#0201B45555555555 benigno
(1716404141.848635) can0 026#0000000000000000 benigno
(1716404141.867036) can0 0FF#02018D5555555555 benigno
(1716404141.926438) can0 3D4#0201435555555555 benigno
(1716404141.926637) can0 03A#0000616521555555 benigno
(1716404142.032780) can0 141#0201B45555555555 benigno
(1716404142.033018) can0 026#0000000000000000 benigno
(1716404142.084374) can0 02C#0001FB0000000000 benigno
(1716404142.107985) can0 3D4#0201435555555555 benigno
(1716404142.108212) can0 03A#0000616521555555 benigno
(1716404142.212577) can0 141#0201B45555555555 benigno
(1716404142.212795) can0 026#0000000000000000 benigno
(1716404142.272504) can0 3D4#0000000000000000 benigno
(1716404142.287734) can0 3D4#0201435555555555 benigno
(1716404142.287962) can0 03A#0000616521555555 benigno
(1716404142.388269) can0 0FF#02018D5555555555 benigno
(1716404142.394911) can0 141#0201B45555555555 benigno
(1716404142.395158) can0 026#0000000000000000 benigno
(1716404142.470263) can0 3D4#0201435555555555 benigno
(1716404142.470459) can0 03A#0000616521555555 benigno
(1716404142.575376) can0 141#0201B45555555555 benigno
(1716404142.575626) can0 026#0000000000000000 benigno
(1716404142.650613) can0 3D4#0201435555555555 benigno
(1716404142.650847) can0 03A#0000616521555555 benigno
(1716404142.755508) can0 141#0201B45555555555 benigno
(1716404142.755734) can0 026#0000000000000000 benigno
(1716404142.830653) can0 3D4#0201435555555555 benigno
(1716404142.830858) can0 03A#0000616521555555 benigno
(1716404142.845483) can0 026#0201585555555555 benigno
(1716404142.909003) can0 0FF#02018D5555555555 benigno
(1716404142.935226) can0 141#0201B45555555555 benigno
(1716404142.935467) can0 026#0000000000000000 benigno
(1716404143.026142) can0 3D4#0201435555555555 benigno
(1716404143.026350) can0 03A#0000616521555555 benigno
(1716404143.125576) can0 02C#0001FB0000000000 benigno
(1716404143.134144) can0 141#0201B45555555555 benigno
(1716404143.134388) can0 026#0000000000000000 benigno
(1716404143.228141) can0 3D4#0201435555555555 benigno
(1716404143.228341) can0 03A#0000616521555555 benigno
(1716404143.306623) can0 3D4#0000000000000000 benigno
(1716404143.337289) can0 141#0201B45555555555 benigno
(1716404143.337528) can0 026#0000000000000000 benigno
(1716404143.412812) can0 3D4#0201435555555555 benigno
(1716404143.413039) can0 03A#0000616521555555 benigno
(1716404143.429369) can0 0FF#02018D5555555555 benigno
(1716404143.518429) can0 141#0201B45555555555 benigno
(1716404143.518664) can0 026#0000000000000000 benigno
(1716404143.593793) can0 3D4#0201435555555555 benigno
(1716404143.593968) can0 03A#0000616521555555 benigno
(1716404143.698657) can0 141#0201B45555555555 benigno
(1716404143.699030) can0 026#0000000000000000 benigno
(1716404143.774299) can0 3D4#0201435555555555 benigno
(1716404143.774513) can0 03A#0000616521555555 benigno
(1716404143.864572) can0 026#0201585555555555 benigno
(1716404143.879623) can0 141#0201B45555555555 benigno
(1716404143.879820) can0 026#0000000000000000 benigno
(1716404143.950600) can0 0FF#02018D5555555555 benigno
(1716404143.954793) can0 3D4#0201435555555555 benigno
(1716404143.955026) can0 03A#0000616521555555 benigno
(1716404144.061222) can0 141#0201B45555555555 benigno
(1716404144.061450) can0 026#0000000000000000 benigno
(1716404144.137367) can0 3D4#0201435555555555 benigno
(1716404144.137562) can0 03A#0000616521555555 benigno
(1716404144.166267) can0 02C#0001FB0000000000 benigno
(1716404144.242555) can0 141#0201B45555555555 benigno
(1716404144.242797) can0 026#0000000000000000 benigno
(1716404144.317985) can0 3D4#0000000000000000 benigno
(1716404144.333047) can0 3D4#0201435555555555 benigno
(1716404144.333287) can0 03A#0000616521555555 benigno
(1716404144.439337) can0 141#0201B45555555555 benigno
(1716404144.439583) can0 026#0000000000000000 benigno
(1716404144.471698) can0 0FF#02018D5555555555 benigno
(1716404144.533308) can0 3D4#0201435555555555 benigno
(1716404144.533495) can0 03A#0000616521555555 benigno
(1716404144.643175) can0 141#0201B45555555555 benigno
(1716404144.643424) can0 026#0000000000000000 benigno
(1716404144.719128) can0 3D4#0201435555555555 benigno
(1716404144.719364) can0 03A#0000616521555555 benigno
(1716404144.824852) can0 141#0201B45555555555 benigno
(1716404144.825115) can0 026#0000000000000000 benigno
(1716404144.887223) can0 026#0201585555555555 benigno
(1716404144.903208) can0 3D4#0201435555555555 benigno
(1716404144.903451) can0 03A#0000616521555555 benigno
(1716404144.993141) can0 0FF#02018D5555555555 benigno
(1716404145.009398) can0 141#0201B45555555555 benigno
(1716404145.009650) can0 026#0000000000000000 benigno
(1716404145.084341) can0 3D4#0201435555555555 benigno
(1716404145.084542) can0 03A#0000616521555555 benigno
(1716404145.191348) can0 141#0201B45555555555 benigno
(1716404145.191563) can0 026#0000000000000000 benigno
(1716404145.207910) can0 02C#0001FB0000000000 benigno
(1716404145.283743) can0 3D4#0201435555555555 benigno
(1716404145.283973) can0 03A#0000616521555555 benigno
(1716404145.332324) can0 3D4#0000000000000000 benigno
(1716404145.395939) can0 141#0201B45555555555 benigno
(1716404145.396139) can0 026#0000000000000000 benigno
(1716404145.473731) can0 3D4#0201435555555555 benigno
(1716404145.473978) can0 03A#0000616521555555 benigno
(1716404145.513607) can0 0FF#02018D5555555555 benigno
(1716404145.584855) can0 141#0201B45555555555 benigno
(1716404145.585187) can0 026#0000000000000000 benigno
(1716404145.661884) can0 3D4#0201435555555555 benigno
(1716404145.662074) can0 03A#0000616521555555 benigno
(1716404145.768915) can0 141#0201B45555555555 benigno
(1716404145.769160) can0 026#0000000000000000 benigno
(1716404145.845208) can0 3D4#0201435555555555 benigno
(1716404145.845401) can0 03A#0000616521555555 benigno
(1716404145.906473) can0 026#0201585555555555 benigno
(1716404145.951597) can0 141#0201B45555555555 benigno
(1716404145.951836) can0 026#0000000000000000 benigno
(1716404146.026782) can0 3D4#0201435555555555 benigno
(1716404146.027010) can0 03A#0000616521555555 benigno
(1716404146.034184) can0 0FF#02018D5555555555 benigno
(1716404146.131964) can0 141#0201B45555555555 benigno
(1716404146.132210) can0 026#0000000000000000 benigno
(1716404146.206971) can0 3D4#0201435555555555 benigno
(1716404146.207202) can0 03A#0000616521555555 benigno
(1716404146.249020) can0 02C#0001FB0000000000 benigno
(1716404146.312385) can0 141#0201B45555555555 benigno
(1716404146.312600) can0 026#0000000000000000 benigno
(1716404146.342744) can0 3D4#0000000000000000 benigno
(1716404146.387682) can0 3D4#0201435555555555 benigno
(1716404146.387897) can0 03A#0000616521555555 benigno
(1716404146.492883) can0 141#0201B45555555555 benigno
(1716404146.493119) can0 026#0000000000000000 benigno
(1716404146.555278) can0 0FF#02018D5555555555 benigno
(1716404146.567954) can0 3D4#0201435555555555 benigno
(1716404146.568175) can0 03A#0000616521555555 benigno
(1716404146.672605) can0 141#0201B45555555555 benigno
(1716404146.672823) can0 026#0000000000000000 benigno
(1716404146.748026) can0 3D4#0201435555555555 benigno
(1716404146.748219) can0 03A#0000616521555555 benigno
(1716404146.857134) can0 141#0201B45555555555 benigno
(1716404146.857333) can0 026#0000000000000000 benigno
(1716404146.920083) can0 026#0201585555555555 benigno
(1716404146.936199) can0 3D4#0201435555555555 benigno
(1716404146.936424) can0 03A#0000616521555555 benigno
(1716404147.045053) can0 141#0201B45555555555 benigno
(1716404147.045265) can0 026#0000000000000000 benigno
(1716404147.076686) can0 0FF#02018D5555555555 benigno
(1716404147.136570) can0 3D4#0201435555555555 benigno
(1716404147.136761) can0 03A#0000616521555555 benigno
(1716404147.243905) can0 141#0201B45555555555 benigno
(1716404147.244147) can0 026#0000000000000000 benigno
(1716404147.289608) can0 02C#0001FB0000000000 benigno
(1716404147.321104) can0 3D4#0201435555555555 benigno
(1716404147.321300) can0 03A#0000616521555555 benigno
(1716404147.352071) can0 3D4#0000000000000000 benigno
(1716404147.431120) can0 141#0201B45555555555 benigno
(1716404147.431335) can0 026#0000000000000000 benigno
(1716404147.508052) can0 3D4#0201435555555555 benigno
(1716404147.508282) can0 03A#0000616521555555 benigno
(1716404147.597458) can0 0FF#02018D5555555555 benigno
(1716404147.614943) can0 141#0201B45555555555 benigno
(1716404147.615193) can0 026#0000000000000000 benigno
(1716404147.690053) can0 3D4#0201435555555555 benigno
(1716404147.690263) can0 03A#0000616521555555 benigno
(1716404147.795222) can0 141#0201B45555555555 benigno
(1716404147.795454) can0 026#0000000000000000 benigno
(1716404147.870195) can0 3D4#0201435555555555 benigno
(1716404147.870406) can0 03A#0000616521555555 benigno
(1716404147.930215) can0 026#0201585555555555 benigno
(1716404147.975471) can0 141#0201B45555555555 benigno
(1716404147.975689) can0 026#0000000000000000 benigno
(1716404148.051947) can0 3D4#0201435555555555 benigno
(1716404148.052179) can0 03A#0000616521555555 benigno
(1716404148.118910) can0 0FF#02018D5555555555 benigno
(1716404148.157327) can0 141#0201B45555555555 benigno
(1716404148.157574) can0 026#0000000000000000 benigno
(1716404148.232943) can0 3D4#0201435555555555 benigno
(1716404148.233155) can0 03A#0000616521555555 benigno
(1716404148.330812) can0 02C#0001FB0000000000 benigno
(1716404148.342257) can0 141#0201B45555555555 benigno
(1716404148.342504) can0 026#0000000000000000 benigno
(1716404148.374176) can0 3D4#0000000000000000 benigno
(1716404148.418958) can0 3D4#0201435555555555 benigno
(1716404148.419185) can0 03A#0000616521555555 benigno
(1716404148.528114) can0 141#0201B45555555555 benigno
(1716404148.528346) can0 026#0000000000000000 benigno
(1716404148.604312) can0 3D4#0201435555555555 benigno
(1716404148.604529) can0 03A#0000616521555555 benigno
(1716404148.639774) can0 0FF#02018D5555555555 benigno
(1716404148.709379) can0 141#0201B45555555555 benigno
(1716404148.709608) can0 026#0000000000000000 benigno
(1716404148.784819) can0 3D4#0201435555555555 benigno
(1716404148.785049) can0 03A#0000616521555555 benigno
(1716404148.892555) can0 141#0201B45555555555 benigno
(1716404148.892778) can0 026#0000000000000000 benigno
(1716404148.953255) can0 026#0201585555555555 benigno
(1716404148.968316) can0 3D4#0201435555555555 benigno
(1716404148.968534) can0 03A#0000616521555555 benigno
(1716404149.073111) can0 141#0201B45555555555 benigno
(1716404149.073512) can0 026#0000000000000000 benigno
(1716404149.160756) can0 0FF#02018D5555555555 benigno
(1716404149.163226) can0 3D4#0201435555555555 benigno
(1716404149.163450) can0 03A#0000616521555555 benigno
(1716404149.268239) can0 141#0201B45555555555 benigno
(1716404149.268464) can0 026#0000000000000000 benigno
(1716404149.344000) can0 3D4#0201435555555555 benigno
(1716404149.344210) can0 03A#0000616521555555 benigno
(1716404149.371608) can0 02C#0001FB0000000000 benigno
(1716404149.389036) can0 3D4#0000000000000000 benigno
(1716404149.449239) can0 141#0201B45555555555 benigno
(1716404149.449459) can0 026#0000000000000000 benigno
(1716404149.524137) can0 3D4#0201435555555555 benigno
(1716404149.524350) can0 03A#0000616521555555 benigno
(1716404149.629858) can0 141#0201B45555555555 benigno
(1716404149.630102) can0 026#0000000000000000 benigno
(1716404149.681541) can0 0FF#02018D5555555555 benigno
(1716404149.706139) can0 3D4#0201435555555555 benigno
(1716404149.706369) can0 03A#0000616521555555 benigno
(1716404149.811351) can0 141#0201B45555555555 benigno
(1716404149.811582) can0 026#0000000000000000 benigno
(1716404149.886247) can0 3D4#0201435555555555 benigno
(1716404149.886446) can0 03A#0000616521555555 benigno
(1716404149.976385) can0 026#0201585555555555 benigno
(1716404149.991468) can0 141#0201B45555555555 benigno
(1716404149.991721) can0 026#0000000000000000 benigno
(1716404150.066142) can0 3D4#0201435555555555 benigno
(1716404150.066348) can0 03A#0000616521555555 benigno
(1716404150.171602) can0 141#0201B45555555555 benigno
(1716404150.171827) can0 026#0000000000000000 benigno
(1716404150.202069) can0 0FF#02018D5555555555 benigno
(1716404150.246532) can0 3D4#0201435555555555 benigno
(1716404150.246761) can0 03A#0000616521555555 benigno
(1716404150.351803) can0 141#0201B45555555555 benigno
(1716404150.352024) can0 026#0000000000000000 benigno
(1716404150.411541) can0 3D4#0000000000000000 benigno
(1716404150.412353) can0 02C#0001FB0000000000 benigno
(1716404150.426823) can0 3D4#0201435555555555 benigno
(1716404150.427056) can0 03A#0000616521555555 benigno
(1716404150.531630) can0 141#0201B45555555555 benigno
(1716404150.531851) can0 026#0000000000000000 benigno
(1716404150.607272) can0 3D4#0201435555555555 benigno
(1716404150.607484) can0 03A#0000616521555555 benigno
(1716404150.712100) can0 141#0201B45555555555 benigno
(1716404150.712337) can0 026#0000000000000000 benigno
(1716404150.723738) can0 0FF#02018D5555555555 benigno
(1716404150.802310) can0 3D4#0201435555555555 benigno
(1716404150.802528) can0 03A#0000616521555555 benigno
(1716404150.907292) can0 141#0201B45555555555 benigno
(1716404150.907512) can0 026#0000000000000000 benigno
(1716404150.982490) can0 3D4#0201435555555555 benigno
(1716404150.982688) can0 03A#0000616521555555 benigno
(1716404150.997443) can0 026#0201585555555555 benigno
(1716404151.087557) can0 141#0201B45555555555 benigno
(1716404151.087781) can0 026#0000000000000000 benigno
(1716404151.163564) can0 3D4#0201435555555555 benigno
(1716404151.163780) can0 03A#0000616521555555 benigno
(1716404151.244100) can0 0FF#02018D5555555555 benigno
(1716404151.268461) can0 141#0201B45555555555 benigno
(1716404151.268909) can0 026#0000000000000000 benigno
(1716404151.344584) can0 3D4#0201435555555555 benigno
(1716404151.344800) can0 03A#0000616521555555 benigno
(1716404151.450596) can0 141#0201B45555555555 benigno
(1716404151.450818) can0 3D4#0000000000000000 benigno
(1716404151.451068) can0 026#0000000000000000 benigno
(1716404151.454155) can0 02C#0001FB0000000000 benigno
(1716404151.525694) can0 3D4#0201435555555555 benigno
(1716404151.525919) can0 03A#0000616521555555 benigno
(1716404151.634165) can0 141#0201B45555555555 benigno
(1716404151.634394) can0 026#0000000000000000 benigno
(1716404151.712056) can0 3D4#0201435555555555 benigno
(1716404151.712255) can0 03A#0000616521555555 benigno
(1716404151.765504) can0 0FF#02018D5555555555 benigno
(1716404151.821879) can0 141#0201B45555555555 benigno
(1716404151.822249) can0 026#0000000000000000 benigno
(1716404151.899084) can0 3D4#0201435555555555 benigno
(1716404151.899280) can0 03A#0000616521555555 benigno
(1716404152.006794) can0 026#0201585555555555 benigno
(1716404152.006992) can0 141#0201B45555555555 benigno
(1716404152.007240) can0 026#0000000000000000 benigno
(1716404152.083346) can0 3D4#0201435555555555 benigno
(1716404152.083575) can0 03A#0000616521555555 benigno
(1716404152.188604) can0 141#0201B45555555555 benigno
(1716404152.188829) can0 026#0000000000000000 benigno
(1716404152.263428) can0 3D4#0201435555555555 benigno
(1716404152.263658) can0 03A#0000616521555555 benigno
(1716404152.286115) can0 0FF#02018D5555555555 benigno
(1716404152.368614) can0 141#0201B45555555555 benigno
(1716404152.368866) can0 026#0000000000000000 benigno
(1716404152.443648) can0 3D4#0201435555555555 benigno
(1716404152.443852) can0 03A#0000616521555555 benigno
(1716404152.473658) can0 3D4#0000000000000000 benigno
(1716404152.495047) can0 02C#0001FB0000000000 benigno
(1716404152.548289) can0 141#0201B45555555555 benigno
(1716404152.548675) can0 026#0000000000000000 benigno
(1716404152.623404) can0 3D4#0201435555555555 benigno
(1716404152.623622) can0 03A#0000616521555555 benigno
(1716404152.728481) can0 141#0201B45555555555 benigno
(1716404152.728701) can0 026#0000000000000000 benigno
(1716404152.807203) can0 0FF#02018D5555555555 benigno
(1716404152.818612) can0 3D4#0201435555555555 benigno
(1716404152.818841) can0 03A#0000616521555555 benigno
(1716404152.923746) can0 141#0201B45555555555 benigno
(1716404152.923965) can0 026#0000000000000000 benigno
(1716404152.998684) can0 3D4#0201435555555555 benigno
(1716404152.998887) can0 03A#0000616521555555 benigno
(1716404153.028692) can0 026#0201585555555555 benigno
(1716404153.103547) can0 141#0201B45555555555 benigno
(1716404153.103769) can0 026#0000000000000000 benigno
(1716404153.178678) can0 3D4#0201435555555555 benigno
(1716404153.178901) can0 03A#0000616521555555 benigno
(1716404153.283380) can0 141#0201B45555555555 benigno
(1716404153.283597) can0 026#0000000000000000 benigno
(1716404153.328217) can0 0FF#02018D5555555555 benigno
(1716404153.358458) can0 3D4#0201435555555555 benigno
(1716404153.358686) can0 03A#0000616521555555 benigno
(1716404153.463825) can0 141#0201B45555555555 benigno
(1716404153.464040) can0 026#0000000000000000 benigno
(1716404153.493792) can0 3D4#0000000000000000 benigno
(1716404153.536551) can0 02C#0001FB0000000000 benigno
(1716404153.538873) can0 3D4#0201435555555555 benigno
(1716404153.539103) can0 03A#0000616521555555 benigno
(1716404153.643732) can0 141#0201B45555555555 benigno
(1716404153.643946) can0 026#0000000000000000 benigno
(1716404153.718858) can0 3D4#0201435555555555 benigno
(1716404153.719049) can0 03A#0000616521555555 benigno
(1716404153.824218) can0 141#0201B45555555555 benigno
(1716404153.824439) can0 026#0000000000000000 benigno
(1716404153.849584) can0 0FF#02018D5555555555 benigno
(1716404153.899256) can0 3D4#0201435555555555 benigno
(1716404153.899457) can0 03A#0000616521555555 benigno
(1716404154.008295) can0 141#0201B45555555555 benigno
(1716404154.008507) can0 026#0000000000000000 benigno
(1716404154.055263) can0 026#0201585555555555 benigno
(1716404154.086274) can0 3D4#0201435555555555 benigno
(1716404154.086504) can0 03A#0000616521555555 benigno
(1716404154.198376) can0 141#0201B45555555555 benigno
(1716404154.198628) can0 026#0000000000000000 benigno
(1716404154.276264) can0 3D4#0201435555555555 benigno
(1716404154.276478) can0 03A#0000616521555555 benigno
(1716404154.370697) can0 0FF#02018D5555555555 benigno
(1716404154.384277) can0 141#0201B45555555555 benigno
(1716404154.384523) can0 026#0000000000000000 benigno
(1716404154.461605) can0 3D4#0201435555555555 benigno
(1716404154.461829) can0 03A#0000616521555555 benigno
(1716404154.507187) can0 3D4#0000000000000000 benigno
(1716404154.567335) can0 141#0201B45555555555 benigno
(1716404154.567548) can0 026#0000000000000000 benigno
(1716404154.578706) can0 02C#0001FB0000000000 benigno
(1716404154.643710) can0 3D4#0201435555555555 benigno
(1716404154.643928) can0 03A#0000616521555555 benigno
(1716404154.748652) can0 141#0201B45555555555 benigno
(1716404154.748879) can0 026#0000000000000000 benigno
(1716404154.823821) can0 3D4#0201435555555555 benigno
(1716404154.824034) can0 03A#0000616521555555 benigno
(1716404154.891273) can0 0FF#02018D5555555555 benigno
(1716404154.928697) can0 141#0201B45555555555 benigno
(1716404154.928923) can0 026#0000000000000000 benigno
(1716404155.003515) can0 3D4#0201435555555555 benigno
(1716404155.003713) can0 03A#0000616521555555 benigno
(1716404155.078560) can0 026#0201585555555555 benigno
(1716404155.108478) can0 141#0201B45555555555 benigno
(1716404155.108730) can0 026#0000000000000000 benigno
(1716404155.183407) can0 3D4#0201435555555555 benigno
(1716404155.183620) can0 03A#0000616521555555 benigno
(1716404155.292099) can0 141#0201B45555555555 benigno
(1716404155.292318) can0 026#0000000000000000 benigno
(1716404155.367383) can0 3D4#0201435555555555 benigno
(1716404155.367588) can0 03A#0000616521555555 benigno
(1716404155.412249) can0 0FF#02018D5555555555 benigno
(1716404155.472985) can0 141#0201B45555555555 benigno
(1716404155.473213) can0 026#0000000000000000 benigno
(1716404155.520752) can0 3D4#0000000000000000 benigno
(1716404155.566840) can0 3D4#0201435555555555 benigno
(1716404155.567071) can0 03A#0000616521555555 benigno
(1716404155.619379) can0 02C#0001FB0000000000 benigno
(1716404155.674778) can0 141#0201B45555555555 benigno
(1716404155.675010) can0 026#0000000000000000 benigno
(1716404155.750386) can0 3D4#0201435555555555 benigno
(1716404155.750605) can0 03A#0000616521555555 benigno
(1716404155.856821) can0 141#0201B45555555555 benigno
(1716404155.857057) can0 026#0000000000000000 benigno
(1716404155.933559) can0 0FF#02018D5555555555 benigno
(1716404155.934592) can0 3D4#0201435555555555 benigno
(1716404155.935059) can0 03A#0000616521555555 benigno
(1716404156.044463) can0 141#0201B45555555555 benigno
(1716404156.044748) can0 026#0000000000000000 benigno
(1716404156.090827) can0 026#0201585555555555 benigno
(1716404156.122523) can0 3D4#0201435555555555 benigno
(1716404156.122761) can0 03A#0000616521555555 benigno
(1716404156.228744) can0 141#0201B45555555555 benigno
(1716404156.228993) can0 026#0000000000000000 benigno
(1716404156.304754) can0 3D4#0201435555555555 benigno
(1716404156.304942) can0 03A#0000616521555555 benigno
(1716404156.409459) can0 141#0201B45555555555 benigno
(1716404156.409704) can0 026#0000000000000000 benigno
(1716404156.454100) can0 0FF#02018D5555555555 benigno
(1716404156.489634) can0 3D4#0201435555555555 benigno
(1716404156.489845) can0 03A#0000616521555555 benigno
(1716404156.536575) can0 3D4#0000000000000000 benigno
(1716404156.597597) can0 141#0201B45555555555 benigno
(1716404156.597811) can0 026#0000000000000000 benigno
(1716404156.660203) can0 02C#0001FB0000000000 benigno
(1716404156.672545) can0 3D4#0201435555555555 benigno
(1716404156.672762) can0 03A#0000616521555555 benigno
